
T2E9C 000:030 SEGGER J-Link V4.76d Log File (0000ms, 0029ms total)
T2E9C 000:030 DLL Compiled: Sep 13 2013 16:35:06 (0000ms, 0029ms total)
T2E9C 000:030 Logging started @ 2014-01-26 14:57 (0000ms, 0029ms total)
T2E9C 000:030 JLINK_SetWarnOutHandler(...) (0000ms, 0029ms total)
T2E9C 000:030 JLINK_OpenEx(...)
Firmware: J-Link ARM V8 compiled Jul 17 2013 11:24:15
Hardware: V8.00
S/N: 268004042
OEM: SEGGER-EDU
Feature(s): FlashBP, GDB  returns O.K. (0014ms, 0043ms total)
T2E9C 000:044 JLINK_SetErrorOutHandler(...) (0000ms, 0043ms total)
T2E9C 000:044 JLINK_ExecCommand("ProjectFile = "R:\src\chordia\lpcopen\applications\lpc18xx_43xx\examples\LPCUSBlib\lpcusblib_AudioInputDevice\JLinkSettings.ini"", ...)  returns 0x00 (0001ms, 0044ms total)
T2E9C 000:045 JLINK_ExecCommand("Device = LPC4330", ...)
                JLINK_AddMirrorAreaEx(Addr = 0x00000000, Size = 0x00000000) (0000ms, 0000ms total)
              Device "LPC4330_M4" selected (65536 KB flash, 128 KB RAM).  returns 0x00 (0060ms, 0104ms total)
T2E9C 000:105 JLINK_ExecCommand("DisableConnectionTimeout", ...)  returns 0x01 (0000ms, 0104ms total)
T2E9C 000:105 JLINK_GetHardwareVersion()  returns 0x13880 (0000ms, 0104ms total)
T2E9C 000:105 JLINK_GetDLLVersion()  returns 47604 (0000ms, 0104ms total)
T2E9C 000:105 JLINK_GetDLLVersion()  returns 47604 (0000ms, 0104ms total)
T2E9C 000:105 JLINK_GetCompileDateTime() (0000ms, 0104ms total)
T2E9C 000:105 JLINK_GetFirmwareString(...) (0000ms, 0104ms total)
T2E9C 000:105 JLINK_GetHardwareVersion()  returns 0x13880 (0000ms, 0104ms total)
T2E9C 000:106 JLINK_TIF_Select(JLINKARM_TIF_JTAG)  returns 0x00 (0000ms, 0104ms total)
T2E9C 000:106 JLINK_SetSpeed(2000) (0000ms, 0104ms total)
T2E9C 000:106 JLINK_GetIdData(...) >0x2F8 JTAG>TotalIRLen = 8, IRPrint = 0x0011 >0x30 JTAG> >0x210 JTAG> >0x70 JTAG> >0x40 JTAG> >0x40 JTAG> >0x40 JTAG> >0x50 JTAG> >0x80 JTAG> >0x40 JTAG> >0x30 JTAG> >0x40 JTAG> >0x40 JTAG> >0x30 JTAG> >0x40 JTAG> >0x50 JTAG>Found Cortex-M4 r0p1, Little endian. -- CPU_WriteMem(4 bytes @ 0xE0002000) -- CPU_ReadMem(4 bytes @ 0xE000EDF0) -- CPU_ReadMem(4 bytes @ 0xE0002000)FPUnit: 6 code (BP) slots and 2 literal slots -- CPU_ReadMem(4 bytes @ 0xE000EDFC)
 -- CPU_ReadMem(4 bytes @ 0xE0001000) -- CPU_WriteMem(4 bytes @ 0xE0001000) -- CPU_ReadMem(4 bytes @ 0xE00FF010)TPIU fitted.ETM fitted.ETB present. -- CPU_ReadMem(4 bytes @ 0xE00FF018) ScanLen=8 NumDevices=2 aId[0]=0x4BA00477 aIrRead[0]=0 aScanLen[0]=0 aScanRead[0]=0 (0017ms, 0121ms total)
T2E9C 000:124 JLINK_JTAG_GetDeviceID(DeviceIndex = 0)  returns 0x4BA00477 (0000ms, 0121ms total)
T2E9C 000:124 JLINK_JTAG_GetDeviceInfo(DeviceIndex = 0)  returns 0x00 (0000ms, 0121ms total)
T2E9C 000:124 JLINK_JTAG_GetDeviceID(DeviceIndex = 1)  returns 0xBA01477 (0000ms, 0121ms total)
T2E9C 000:124 JLINK_JTAG_GetDeviceInfo(DeviceIndex = 1)  returns 0x00 (0000ms, 0121ms total)
T2E9C 000:124 JLINK_GetDeviceFamily()  returns 14 (0000ms, 0121ms total)
T2E9C 000:124 JLINK_ReadMem (0xE00FFFF0, 0x0010 Bytes, ...) -- CPU is running -- CPU_ReadMem(16 bytes @ 0xE00FFFF0) -- Data:  0D 00 00 00 10 00 00 00 05 00 00 00 B1 00 00 00  returns 0x00 (0000ms, 0121ms total)
T2E9C 000:124 JLINK_ReadMem (0xE00FFFD0, 0x0020 Bytes, ...) -- CPU is running -- CPU_ReadMem(32 bytes @ 0xE00FFFD0) -- Data:  04 00 00 00 00 00 00 00 00 00 00 00 00 00 00 00 ...  returns 0x00 (0001ms, 0122ms total)
T2E9C 000:125 JLINK_ReadMem (0xE00FF000, 0x0018 Bytes, ...) -- CPU is running -- CPU_ReadMem(24 bytes @ 0xE00FF000) -- Data:  03 F0 F0 FF 03 20 F0 FF 03 30 F0 FF 03 10 F0 FF ...  returns 0x00 (0001ms, 0123ms total)
T2E9C 000:126 JLINK_ReadMemU32(0xE000ED00, 0x0001 Items, ...) -- CPU is running -- CPU_ReadMem(4 bytes @ 0xE000ED00) -- Data:  41 C2 0F 41  returns 0x01 (0001ms, 0124ms total)
T2E9C 000:127 JLINK_ReadMemU32(0xE000EF40, 0x0001 Items, ...) -- CPU is running -- CPU_ReadMem(4 bytes @ 0xE000EF40) -- Data:  21 00 11 10  returns 0x01 (0000ms, 0124ms total)
T2E9C 000:127 JLINK_ReadMemU32(0xE000EF44, 0x0001 Items, ...) -- CPU is running -- CPU_ReadMem(4 bytes @ 0xE000EF44) -- Data:  11 00 00 11  returns 0x01 (0001ms, 0125ms total)
T2E9C 000:128 JLINK_SetResetType(JLINKARM_RESET_TYPE_NORMAL)  returns JLINKARM_RESET_TYPE_NORMAL (0000ms, 0125ms total)
T2E9C 000:128 JLINK_Reset() -- CPU_ReadMem(64 bytes @ 0x10000000) -- CPU_ReadMem(64 bytes @ 0x10080000) -- CPU_ReadMem(4096 bytes @ 0x10089000) -- CPU_WriteMem(4 bytes @ 0x40043100) -- CPU_WriteMem(4 bytes @ 0x4004312C) -- CPU_ReadMem(4 bytes @ 0xE000EDFC) -- CPU_ReadMem(4 bytes @ 0xE0001020) -- CPU_ReadMem(4 bytes @ 0xE0001024) -- CPU_ReadMem(4 bytes @ 0xE0001028) -- CPU_WriteMem(4 bytes @ 0xE0001020) -- CPU_WriteMem(4 bytes @ 0xE0001024) -- CPU_WriteMem(4 bytes @ 0xE0001028)
 -- CPU_ReadMem(8192 bytes @ 0x10400000) -- CPU_WriteMem(4 bytes @ 0xE0002000) -- CPU_ReadMem(4 bytes @ 0xE0002008) -- CPU_WriteMem(4 bytes @ 0xE0002008) -- CPU_ReadMem(4 bytes @ 0x4005140C) -- CPU_WriteMem(4 bytes @ 0x4000301C) -- CPU_ReadMem(4 bytes @ 0x4000301C) -- CPU_WriteMem(4 bytes @ 0x40003004) -- CPU_ReadMem(4 bytes @ 0x4000301C) -- CPU_WriteMem(4 bytes @ 0xE000ED0C) -- CPU_WriteMem(4 bytes @ 0xE0002008) -- CPU_WriteMem(4 bytes @ 0xE0001020) -- CPU_WriteMem(4 bytes @ 0xE0001024)
 -- CPU_WriteMem(4 bytes @ 0xE0001028) -- CPU_WriteMem(64 bytes @ 0x10000000) -- CPU_WriteMem(64 bytes @ 0x10080000) -- CPU_WriteMem(4096 bytes @ 0x10089000) -- CPU_ReadMem(4 bytes @ 0x00000000) -- CPU_WriteMem(4 bytes @ 0xE000EDF8) -- CPU_WriteMem(4 bytes @ 0xE000EDF4) -- CPU_ReadMem(4 bytes @ 0x00000004) -- CPU_WriteMem(4 bytes @ 0xE000EDF8) -- CPU_WriteMem(4 bytes @ 0xE000EDF4) -- CPU_WriteMem(4 bytes @ 0xE0002000) (0189ms, 0314ms total)
T2E9C 000:317 JLINK_ReadReg(R15 (PC))  returns 0x14000128 (0000ms, 0314ms total)
T2E9C 000:317 JLINK_ReadReg(XPSR)  returns 0x81000000 (0000ms, 0314ms total)
T2E9C 000:317 JLINK_Halt()  returns 0x00 (0000ms, 0314ms total)
T2E9C 000:317 JLINK_IsHalted()  returns TRUE (0000ms, 0314ms total)
T2E9C 000:317 JLINK_ReadMemU32(0xE000EDF0, 0x0001 Items, ...) -- CPU_ReadMem(4 bytes @ 0xE000EDF0) -- Data:  03 00 03 00  returns 0x01 (0001ms, 0315ms total)
T2E9C 000:318 JLINK_WriteU32(0xE000EDF0, 0xA05F0003) -- CPU_WriteMem(4 bytes @ 0xE000EDF0)  returns 0x00 (0001ms, 0316ms total)
T2E9C 000:319 JLINK_WriteU32(0xE000EDFC, 0x01000000) -- CPU_WriteMem(4 bytes @ 0xE000EDFC)  returns 0x00 (0000ms, 0316ms total)
T2E9C 000:320 JLINK_GetHWStatus(...)  returns 0x00 (0000ms, 0316ms total)
T2E9C 000:320 JLINK_GetNumBPUnits(Type = 0xFFFFFF00)  returns 0x06 (0000ms, 0316ms total)
T2E9C 000:320 JLINK_GetNumBPUnits(Type = 0xF0)  returns 0x2000 (0000ms, 0316ms total)
T2E9C 000:320 JLINK_GetNumWPUnits()  returns 0x04 (0000ms, 0316ms total)
T2E9C 000:320 JLINK_GetSpeed()  returns 0x7D0 (0000ms, 0316ms total)
T2E9C 000:320 JLINK_ReadMemU32(0xE000E004, 0x0001 Items, ...) -- CPU_ReadMem(4 bytes @ 0xE000E004) -- Data:  01 00 00 00  returns 0x01 (0001ms, 0317ms total)
T2E9C 000:321 JLINK_ReadMemU32(0xE000E004, 0x0001 Items, ...) -- CPU_ReadMem(4 bytes @ 0xE000E004) -- Data:  01 00 00 00  returns 0x01 (0001ms, 0318ms total)
T2E9C 000:322 JLINK_WriteMem(0xE0001000, 0x001C Bytes, ...) -- Data:  01 00 00 00 00 00 00 00 00 00 00 00 00 00 00 00 ... -- CPU_WriteMem(28 bytes @ 0xE0001000)  returns 0x1C (0000ms, 0318ms total)
T2E9C 000:322 JLINK_ReadMem (0xE0001000, 0x001C Bytes, ...) -- CPU_ReadMem(28 bytes @ 0xE0001000) -- Data:  01 00 00 40 00 00 00 00 00 00 00 00 00 00 00 00 ...  returns 0x00 (0001ms, 0319ms total)
T2E9C 000:323 JLINK_ReadReg(R15 (PC))  returns 0x14000128 (0000ms, 0319ms total)
T2E9C 000:323 JLINK_ReadReg(XPSR)  returns 0x81000000 (0000ms, 0319ms total)
T2E9C 000:340 JLINK_WriteMem(0x10000000, 0x1000 Bytes, ...) -- Data:  B0 3C 08 10 29 01 00 10 31 01 00 10 33 01 00 10 ... -- CPU_WriteMem(4096 bytes @ 0x10000000)  returns 0x1000 (0024ms, 0343ms total)
T2E9C 000:365 JLINK_WriteMem(0x10001000, 0x1000 Bytes, ...) -- Data:  22 4B 21 B1 53 F8 20 10 21 B1 00 21 20 E0 54 F8 ... -- CPU_WriteMem(4096 bytes @ 0x10001000)  returns 0x1000 (0024ms, 0367ms total)
T2E9C 000:389 JLINK_WriteMem(0x10002000, 0x0260 Bytes, ...) -- Data:  04 10 02 E0 27 F8 10 20 40 1C B0 EB 91 0F F9 D3 ... -- CPU_WriteMem(608 bytes @ 0x10002000)  returns 0x260 (0005ms, 0372ms total)
T2E9C 000:445 JLINK_SetResetType(JLINKARM_RESET_TYPE_NORMAL)  returns JLINKARM_RESET_TYPE_NORMAL (0000ms, 0372ms total)
T2E9C 000:445 JLINK_Reset() -- CPU_ReadMem(64 bytes @ 0x10000000) -- CPU_ReadMem(64 bytes @ 0x10080000) -- CPU_ReadMem(4096 bytes @ 0x10089000) -- CPU_WriteMem(4 bytes @ 0x40043100) -- CPU_WriteMem(4 bytes @ 0x4004312C) -- CPU_ReadMem(4 bytes @ 0xE000EDFC) -- CPU_ReadMem(4 bytes @ 0xE0001020) -- CPU_ReadMem(4 bytes @ 0xE0001024) -- CPU_ReadMem(4 bytes @ 0xE0001028) -- CPU_WriteMem(4 bytes @ 0xE0001020) -- CPU_WriteMem(4 bytes @ 0xE0001024) -- CPU_WriteMem(4 bytes @ 0xE0001028)
 -- CPU_ReadMem(8192 bytes @ 0x10400000) -- CPU_WriteMem(4 bytes @ 0xE0002000) -- CPU_ReadMem(4 bytes @ 0xE0002008) -- CPU_WriteMem(4 bytes @ 0xE0002008) -- CPU_ReadMem(4 bytes @ 0x4005140C) -- CPU_WriteMem(4 bytes @ 0x4000301C) -- CPU_ReadMem(4 bytes @ 0x4000301C) -- CPU_WriteMem(4 bytes @ 0x40003004) -- CPU_ReadMem(4 bytes @ 0x4000301C) -- CPU_WriteMem(4 bytes @ 0xE000ED0C) -- CPU_WriteMem(4 bytes @ 0xE0002008) -- CPU_WriteMem(4 bytes @ 0xE0001020) -- CPU_WriteMem(4 bytes @ 0xE0001024)
 -- CPU_WriteMem(4 bytes @ 0xE0001028) -- CPU_WriteMem(64 bytes @ 0x10000000) -- CPU_WriteMem(64 bytes @ 0x10080000) -- CPU_WriteMem(4096 bytes @ 0x10089000) -- CPU_ReadMem(4 bytes @ 0x00000000) -- CPU_WriteMem(4 bytes @ 0xE000EDF8) -- CPU_WriteMem(4 bytes @ 0xE000EDF4) -- CPU_ReadMem(4 bytes @ 0x00000004) -- CPU_WriteMem(4 bytes @ 0xE000EDF8) -- CPU_WriteMem(4 bytes @ 0xE000EDF4) -- CPU_WriteMem(4 bytes @ 0xE0002000) (0184ms, 0556ms total)
T2E9C 000:629 JLINK_ReadReg(R15 (PC))  returns 0x14000128 (0000ms, 0556ms total)
T2E9C 000:629 JLINK_ReadReg(XPSR)  returns 0x81000000 (0000ms, 0556ms total)
T2E9C 000:629 JLINK_ReadMem (0x14000128, 0x003C Bytes, ...) -- CPU_ReadMem(128 bytes @ 0x14000100) -- Updating DA cache (128 bytes @ 0x14000100) -- Read from DA cache (60 bytes @ 0x14000128) -- Data:  07 48 80 47 07 48 00 47 FE E7 FE E7 FE E7 FE E7 ...  returns 0x00 (0002ms, 0558ms total)
T2E9C 001:127 JLINK_ReadMem (0x10000128, 0x003C Bytes, ...) -- CPU_ReadMem(60 bytes @ 0x10000128) -- Data:  07 48 80 47 07 48 00 47 FE E7 FE E7 FE E7 FE E7 ...  returns 0x00 (0002ms, 0560ms total)
T2E9C 001:198 JLINK_WriteMem(0x10000000, 0x1000 Bytes, ...) -- Data:  B0 3C 08 10 29 01 00 10 31 01 00 10 33 01 00 10 ... -- CPU_WriteMem(4096 bytes @ 0x10000000)  returns 0x1000 (0024ms, 0584ms total)
T2E9C 001:256 JLINK_WriteMem(0x10001000, 0x1000 Bytes, ...) -- Data:  22 4B 21 B1 53 F8 20 10 21 B1 00 21 20 E0 54 F8 ... -- CPU_WriteMem(4096 bytes @ 0x10001000)  returns 0x1000 (0024ms, 0608ms total)
T2E9C 001:315 JLINK_WriteMem(0x10002000, 0x0260 Bytes, ...) -- Data:  04 10 02 E0 27 F8 10 20 40 1C B0 EB 91 0F F9 D3 ... -- CPU_WriteMem(608 bytes @ 0x10002000)  returns 0x260 (0004ms, 0612ms total)
T2E9C 001:370 JLINK_WriteMem(0x40053100, 0x0004 Bytes, ...) -- Data:  00 00 5F 10 -- CPU_WriteMem(4 bytes @ 0x40053100)  returns 0x04 (0001ms, 0613ms total)
T2E9C 001:383 JLINK_WriteReg(R13 (SP), 0x10083CB0)  returns 0x00 (0000ms, 0613ms total)
T2E9C 001:383 JLINK_ReadReg(R0)  returns 0x80000000 (0001ms, 0614ms total)
T2E9C 001:384 JLINK_ReadReg(R1)  returns 0x80000000 (0000ms, 0614ms total)
T2E9C 001:384 JLINK_ReadReg(R2)  returns 0x400F1FC0 (0000ms, 0614ms total)
T2E9C 001:384 JLINK_ReadReg(R3)  returns 0x00000000 (0000ms, 0614ms total)
T2E9C 001:384 JLINK_ReadReg(R4)  returns 0x80000000 (0000ms, 0614ms total)
T2E9C 001:384 JLINK_ReadReg(R5)  returns 0x40045000 (0000ms, 0614ms total)
T2E9C 001:384 JLINK_ReadReg(R6)  returns 0xD0D0D0D0 (0000ms, 0614ms total)
T2E9C 001:384 JLINK_ReadReg(R7)  returns 0x80000000 (0000ms, 0614ms total)
T2E9C 001:384 JLINK_ReadReg(R8)  returns 0x00000000 (0000ms, 0614ms total)
T2E9C 001:384 JLINK_ReadReg(R9)  returns 0x00000000 (0000ms, 0614ms total)
T2E9C 001:384 JLINK_ReadReg(R10)  returns 0x00000000 (0000ms, 0614ms total)
T2E9C 001:384 JLINK_ReadReg(R11)  returns 0x00000000 (0000ms, 0614ms total)
T2E9C 001:384 JLINK_ReadReg(R12)  returns 0x00000000 (0000ms, 0614ms total)
T2E9C 001:384 JLINK_ReadReg(R13 (SP))  returns 0x10083CB0 (0000ms, 0614ms total)
T2E9C 001:384 JLINK_ReadReg(R14)  returns 0x10400B7D (0000ms, 0614ms total)
T2E9C 001:384 JLINK_ReadReg(R15 (PC))  returns 0x14000128 (0000ms, 0614ms total)
T2E9C 001:384 JLINK_ReadReg(XPSR)  returns 0x81000000 (0000ms, 0614ms total)
T2E9C 001:384 JLINK_ReadReg(MSP)  returns 0x10083CB0 (0000ms, 0614ms total)
T2E9C 001:384 JLINK_ReadReg(PSP)  returns 0x00000000 (0000ms, 0614ms total)
T2E9C 001:384 JLINK_ReadReg(CFBP)  returns 0x00000000 (0000ms, 0614ms total)
T2E9C 001:384 JLINK_ReadReg(FPSCR)  returns 0x00000000 (0007ms, 0621ms total)
T2E9C 001:391 JLINK_ReadReg(FPS0)  returns 0x00000000 (0000ms, 0621ms total)
T2E9C 001:391 JLINK_ReadReg(FPS1)  returns 0x00000000 (0000ms, 0621ms total)
T2E9C 001:391 JLINK_ReadReg(FPS2)  returns 0x00000000 (0000ms, 0621ms total)
T2E9C 001:391 JLINK_ReadReg(FPS3)  returns 0x00000000 (0000ms, 0621ms total)
T2E9C 001:391 JLINK_ReadReg(FPS4)  returns 0x00000000 (0000ms, 0621ms total)
T2E9C 001:391 JLINK_ReadReg(FPS5)  returns 0x00000000 (0000ms, 0621ms total)
T2E9C 001:391 JLINK_ReadReg(FPS6)  returns 0x00000000 (0000ms, 0621ms total)
T2E9C 001:391 JLINK_ReadReg(FPS7)  returns 0x00000000 (0000ms, 0621ms total)
T2E9C 001:391 JLINK_ReadReg(FPS8)  returns 0x00000000 (0000ms, 0621ms total)
T2E9C 001:391 JLINK_ReadReg(FPS9)  returns 0x00000000 (0000ms, 0621ms total)
T2E9C 001:391 JLINK_ReadReg(FPS10)  returns 0x00000000 (0000ms, 0621ms total)
T2E9C 001:391 JLINK_ReadReg(FPS11)  returns 0x00000000 (0000ms, 0621ms total)
T2E9C 001:391 JLINK_ReadReg(FPS12)  returns 0x00000000 (0000ms, 0621ms total)
T2E9C 001:391 JLINK_ReadReg(FPS13)  returns 0x00000000 (0000ms, 0621ms total)
T2E9C 001:391 JLINK_ReadReg(FPS14)  returns 0x00000000 (0000ms, 0621ms total)
T2E9C 001:391 JLINK_ReadReg(FPS15)  returns 0x00000000 (0000ms, 0621ms total)
T2E9C 001:391 JLINK_ReadReg(FPS16)  returns 0x00000000 (0000ms, 0621ms total)
T2E9C 001:391 JLINK_ReadReg(FPS17)  returns 0x00000000 (0000ms, 0621ms total)
T2E9C 001:391 JLINK_ReadReg(FPS18)  returns 0x00000000 (0000ms, 0621ms total)
T2E9C 001:391 JLINK_ReadReg(FPS19)  returns 0x00000000 (0000ms, 0621ms total)
T2E9C 001:391 JLINK_ReadReg(FPS20)  returns 0x00000000 (0000ms, 0621ms total)
T2E9C 001:391 JLINK_ReadReg(FPS31)  returns 0x00000000 (0000ms, 0621ms total)
T2E9C 001:391 JLINK_ReadReg(FPS7)  returns 0x00000000 (0000ms, 0621ms total)
T2E9C 001:391 JLINK_ReadReg(FPS8)  returns 0x00000000 (0000ms, 0621ms total)
T2E9C 001:391 JLINK_ReadReg(FPS9)  returns 0x00000000 (0001ms, 0622ms total)
T2E9C 001:392 JLINK_ReadReg(FPS10)  returns 0x00000000 (0000ms, 0622ms total)
T2E9C 001:392 JLINK_ReadReg(FPS11)  returns 0x00000000 (0000ms, 0622ms total)
T2E9C 001:392 JLINK_ReadReg(FPS12)  returns 0x00000000 (0000ms, 0622ms total)
T2E9C 001:392 JLINK_ReadReg(FPS13)  returns 0x00000000 (0000ms, 0622ms total)
T2E9C 001:392 JLINK_ReadReg(FPS14)  returns 0x00000000 (0000ms, 0622ms total)
T2E9C 001:392 JLINK_ReadReg(FPS15)  returns 0x00000000 (0000ms, 0622ms total)
T2E9C 001:392 JLINK_ReadReg(FPS16)  returns 0x00000000 (0000ms, 0622ms total)
T2E9C 001:392 JLINK_WriteReg(R15 (PC), 0x10000128)  returns 0x00 (0000ms, 0622ms total)
T2E9C 001:392 JLINK_ReadReg(R0)  returns 0x80000000 (0000ms, 0622ms total)
T2E9C 001:392 JLINK_ReadReg(R1)  returns 0x80000000 (0000ms, 0622ms total)
T2E9C 001:392 JLINK_ReadReg(R2)  returns 0x400F1FC0 (0000ms, 0622ms total)
T2E9C 001:392 JLINK_ReadReg(R3)  returns 0x00000000 (0000ms, 0622ms total)
T2E9C 001:392 JLINK_ReadReg(R4)  returns 0x80000000 (0000ms, 0622ms total)
T2E9C 001:392 JLINK_ReadReg(R5)  returns 0x40045000 (0000ms, 0622ms total)
T2E9C 001:392 JLINK_ReadReg(R6)  returns 0xD0D0D0D0 (0000ms, 0622ms total)
T2E9C 001:392 JLINK_ReadReg(R7)  returns 0x80000000 (0000ms, 0622ms total)
T2E9C 001:392 JLINK_ReadReg(R8)  returns 0x00000000 (0000ms, 0622ms total)
T2E9C 001:392 JLINK_ReadReg(R9)  returns 0x00000000 (0000ms, 0622ms total)
T2E9C 001:392 JLINK_ReadReg(R10)  returns 0x00000000 (0000ms, 0622ms total)
T2E9C 001:392 JLINK_ReadReg(R11)  returns 0x00000000 (0000ms, 0622ms total)
T2E9C 001:392 JLINK_ReadReg(R12)  returns 0x00000000 (0000ms, 0622ms total)
T2E9C 001:392 JLINK_ReadReg(R13 (SP))  returns 0x10083CB0 (0000ms, 0622ms total)
T2E9C 001:392 JLINK_ReadReg(R14)  returns 0x10400B7D (0000ms, 0622ms total)
T2E9C 001:392 JLINK_ReadReg(R15 (PC))  returns 0x10000128 (0000ms, 0622ms total)
T2E9C 001:392 JLINK_ReadReg(XPSR)  returns 0x81000000 (0000ms, 0622ms total)
T2E9C 001:392 JLINK_ReadReg(MSP)  returns 0x10083CB0 (0000ms, 0622ms total)
T2E9C 001:392 JLINK_ReadReg(PSP)  returns 0x00000000 (0000ms, 0622ms total)
T2E9C 001:392 JLINK_ReadReg(CFBP)  returns 0x00000000 (0000ms, 0622ms total)
T2E9C 001:392 JLINK_ReadReg(FPSCR)  returns 0x00000000 (0000ms, 0622ms total)
T2E9C 001:392 JLINK_ReadReg(FPS0)  returns 0x00000000 (0000ms, 0622ms total)
T2E9C 001:392 JLINK_ReadReg(FPS1)  returns 0x00000000 (0000ms, 0622ms total)
T2E9C 001:392 JLINK_ReadReg(FPS2)  returns 0x00000000 (0000ms, 0622ms total)
T2E9C 001:392 JLINK_ReadReg(FPS3)  returns 0x00000000 (0000ms, 0622ms total)
T2E9C 001:392 JLINK_ReadReg(FPS4)  returns 0x00000000 (0000ms, 0622ms total)
T2E9C 001:392 JLINK_ReadReg(FPS5)  returns 0x00000000 (0000ms, 0622ms total)
T2E9C 001:392 JLINK_ReadReg(FPS6)  returns 0x00000000 (0000ms, 0622ms total)
T2E9C 001:392 JLINK_ReadReg(FPS7)  returns 0x00000000 (0000ms, 0622ms total)
T2E9C 001:392 JLINK_ReadReg(FPS8)  returns 0x00000000 (0000ms, 0622ms total)
T2E9C 001:392 JLINK_ReadReg(FPS9)  returns 0x00000000 (0000ms, 0622ms total)
T2E9C 001:392 JLINK_ReadReg(FPS10)  returns 0x00000000 (0000ms, 0622ms total)
T2E9C 001:392 JLINK_ReadReg(FPS11)  returns 0x00000000 (0000ms, 0622ms total)
T2E9C 001:392 JLINK_ReadReg(FPS12)  returns 0x00000000 (0000ms, 0622ms total)
T2E9C 001:392 JLINK_ReadReg(FPS13)  returns 0x00000000 (0000ms, 0622ms total)
T2E9C 001:392 JLINK_ReadReg(FPS14)  returns 0x00000000 (0000ms, 0622ms total)
T2E9C 001:392 JLINK_ReadReg(FPS15)  returns 0x00000000 (0000ms, 0622ms total)
T2E9C 001:392 JLINK_ReadReg(FPS16)  returns 0x00000000 (0000ms, 0622ms total)
T2E9C 001:392 JLINK_ReadReg(FPS17)  returns 0x00000000 (0000ms, 0622ms total)
T2E9C 001:392 JLINK_ReadReg(FPS18)  returns 0x00000000 (0000ms, 0622ms total)
T2E9C 001:392 JLINK_ReadReg(FPS19)  returns 0x00000000 (0000ms, 0622ms total)
T2E9C 001:392 JLINK_ReadReg(FPS20)  returns 0x00000000 (0000ms, 0622ms total)
T2E9C 001:392 JLINK_ReadReg(FPS31)  returns 0x00000000 (0000ms, 0622ms total)
T2E9C 001:392 JLINK_ReadReg(FPS7)  returns 0x00000000 (0000ms, 0622ms total)
T2E9C 001:392 JLINK_ReadReg(FPS8)  returns 0x00000000 (0000ms, 0622ms total)
T2E9C 001:392 JLINK_ReadReg(FPS9)  returns 0x00000000 (0000ms, 0622ms total)
T2E9C 001:392 JLINK_ReadReg(FPS10)  returns 0x00000000 (0000ms, 0622ms total)
T2E9C 001:392 JLINK_ReadReg(FPS11)  returns 0x00000000 (0000ms, 0622ms total)
T2E9C 001:392 JLINK_ReadReg(FPS12)  returns 0x00000000 (0000ms, 0622ms total)
T2E9C 001:392 JLINK_ReadReg(FPS13)  returns 0x00000000 (0000ms, 0622ms total)
T2E9C 001:392 JLINK_ReadReg(FPS14)  returns 0x00000000 (0000ms, 0622ms total)
T2E9C 001:392 JLINK_ReadReg(FPS15)  returns 0x00000000 (0000ms, 0622ms total)
T2E9C 001:392 JLINK_ReadReg(FPS16)  returns 0x00000000 (0000ms, 0622ms total)
T2E9C 001:392 JLINK_WriteReg(XPSR, 0x01000000)  returns 0x00 (0000ms, 0622ms total)
T2E9C 001:392 JLINK_ReadReg(R0)  returns 0x80000000 (0000ms, 0622ms total)
T2E9C 001:392 JLINK_ReadReg(R1)  returns 0x80000000 (0000ms, 0622ms total)
T2E9C 001:392 JLINK_ReadReg(R2)  returns 0x400F1FC0 (0000ms, 0622ms total)
T2E9C 001:392 JLINK_ReadReg(R3)  returns 0x00000000 (0000ms, 0622ms total)
T2E9C 001:392 JLINK_ReadReg(R4)  returns 0x80000000 (0000ms, 0622ms total)
T2E9C 001:392 JLINK_ReadReg(R5)  returns 0x40045000 (0000ms, 0622ms total)
T2E9C 001:392 JLINK_ReadReg(R6)  returns 0xD0D0D0D0 (0000ms, 0622ms total)
T2E9C 001:392 JLINK_ReadReg(R7)  returns 0x80000000 (0000ms, 0622ms total)
T2E9C 001:392 JLINK_ReadReg(R8)  returns 0x00000000 (0000ms, 0622ms total)
T2E9C 001:392 JLINK_ReadReg(R9)  returns 0x00000000 (0000ms, 0622ms total)
T2E9C 001:392 JLINK_ReadReg(R10)  returns 0x00000000 (0000ms, 0622ms total)
T2E9C 001:392 JLINK_ReadReg(R11)  returns 0x00000000 (0000ms, 0622ms total)
T2E9C 001:392 JLINK_ReadReg(R12)  returns 0x00000000 (0000ms, 0622ms total)
T2E9C 001:392 JLINK_ReadReg(R13 (SP))  returns 0x10083CB0 (0000ms, 0622ms total)
T2E9C 001:392 JLINK_ReadReg(R14)  returns 0x10400B7D (0000ms, 0622ms total)
T2E9C 001:392 JLINK_ReadReg(R15 (PC))  returns 0x10000128 (0000ms, 0622ms total)
T2E9C 001:392 JLINK_ReadReg(XPSR)  returns 0x01000000 (0000ms, 0622ms total)
T2E9C 001:392 JLINK_ReadReg(MSP)  returns 0x10083CB0 (0000ms, 0622ms total)
T2E9C 001:392 JLINK_ReadReg(PSP)  returns 0x00000000 (0000ms, 0622ms total)
T2E9C 001:392 JLINK_ReadReg(CFBP)  returns 0x00000000 (0000ms, 0622ms total)
T2E9C 001:392 JLINK_ReadReg(FPSCR)  returns 0x00000000 (0000ms, 0622ms total)
T2E9C 001:392 JLINK_ReadReg(FPS0)  returns 0x00000000 (0000ms, 0622ms total)
T2E9C 001:392 JLINK_ReadReg(FPS1)  returns 0x00000000 (0000ms, 0622ms total)
T2E9C 001:392 JLINK_ReadReg(FPS2)  returns 0x00000000 (0000ms, 0622ms total)
T2E9C 001:392 JLINK_ReadReg(FPS3)  returns 0x00000000 (0000ms, 0622ms total)
T2E9C 001:392 JLINK_ReadReg(FPS4)  returns 0x00000000 (0000ms, 0622ms total)
T2E9C 001:392 JLINK_ReadReg(FPS5)  returns 0x00000000 (0000ms, 0622ms total)
T2E9C 001:392 JLINK_ReadReg(FPS6)  returns 0x00000000 (0000ms, 0622ms total)
T2E9C 001:392 JLINK_ReadReg(FPS7)  returns 0x00000000 (0000ms, 0622ms total)
T2E9C 001:392 JLINK_ReadReg(FPS8)  returns 0x00000000 (0000ms, 0622ms total)
T2E9C 001:392 JLINK_ReadReg(FPS9)  returns 0x00000000 (0000ms, 0622ms total)
T2E9C 001:392 JLINK_ReadReg(FPS10)  returns 0x00000000 (0000ms, 0622ms total)
T2E9C 001:392 JLINK_ReadReg(FPS11)  returns 0x00000000 (0000ms, 0622ms total)
T2E9C 001:392 JLINK_ReadReg(FPS12)  returns 0x00000000 (0000ms, 0622ms total)
T2E9C 001:392 JLINK_ReadReg(FPS13)  returns 0x00000000 (0000ms, 0622ms total)
T2E9C 001:392 JLINK_ReadReg(FPS14)  returns 0x00000000 (0000ms, 0622ms total)
T2E9C 001:392 JLINK_ReadReg(FPS15)  returns 0x00000000 (0000ms, 0622ms total)
T2E9C 001:392 JLINK_ReadReg(FPS16)  returns 0x00000000 (0000ms, 0622ms total)
T2E9C 001:393 JLINK_ReadReg(FPS17)  returns 0x00000000 (0000ms, 0623ms total)
T2E9C 001:393 JLINK_ReadReg(FPS18)  returns 0x00000000 (0000ms, 0623ms total)
T2E9C 001:393 JLINK_ReadReg(FPS19)  returns 0x00000000 (0000ms, 0623ms total)
T2E9C 001:393 JLINK_ReadReg(FPS20)  returns 0x00000000 (0000ms, 0623ms total)
T2E9C 001:393 JLINK_ReadReg(FPS31)  returns 0x00000000 (0000ms, 0623ms total)
T2E9C 001:393 JLINK_ReadReg(FPS7)  returns 0x00000000 (0000ms, 0623ms total)
T2E9C 001:393 JLINK_ReadReg(FPS8)  returns 0x00000000 (0000ms, 0623ms total)
T2E9C 001:393 JLINK_ReadReg(FPS9)  returns 0x00000000 (0000ms, 0623ms total)
T2E9C 001:393 JLINK_ReadReg(FPS10)  returns 0x00000000 (0000ms, 0623ms total)
T2E9C 001:393 JLINK_ReadReg(FPS11)  returns 0x00000000 (0000ms, 0623ms total)
T2E9C 001:393 JLINK_ReadReg(FPS12)  returns 0x00000000 (0000ms, 0623ms total)
T2E9C 001:393 JLINK_ReadReg(FPS13)  returns 0x00000000 (0000ms, 0623ms total)
T2E9C 001:393 JLINK_ReadReg(FPS14)  returns 0x00000000 (0000ms, 0623ms total)
T2E9C 001:393 JLINK_ReadReg(FPS15)  returns 0x00000000 (0000ms, 0623ms total)
T2E9C 001:393 JLINK_ReadReg(FPS16)  returns 0x00000000 (0000ms, 0623ms total)
T2E9C 001:393 JLINK_WriteMem(0xE000ED08, 0x0004 Bytes, ...) -- Data:  00 00 00 10 -- CPU_WriteMem(4 bytes @ 0xE000ED08)  returns 0x04 (0000ms, 0623ms total)
T2E9C 001:393 JLINK_WriteMem(0x40043100, 0x0004 Bytes, ...) -- Data:  00 00 00 10 -- CPU_WriteMem(4 bytes @ 0x40043100)  returns 0x04 (0001ms, 0624ms total)
T2A68 001:397 JLINK_SetBPEx(Addr = 0x10001FC8, Type = 0xFFFFFFF2)  returns 0x00000001 (0000ms, 0624ms total)
T2A68 001:397 JLINK_Go() -- CPU_WriteMem(4 bytes @ 0xE0002008) -- CPU_WriteMem(4 bytes @ 0xE000200C) -- CPU_WriteMem(4 bytes @ 0xE0002010) -- CPU_WriteMem(4 bytes @ 0xE0002014) -- CPU_WriteMem(4 bytes @ 0xE0002018) -- CPU_WriteMem(4 bytes @ 0xE000201C) (0004ms, 0628ms total)
T2A68 001:501 JLINK_IsHalted()  returns TRUE (0004ms, 0632ms total)
T2A68 001:505 JLINK_Halt()  returns 0x00 (0000ms, 0628ms total)
T2A68 001:505 JLINK_IsHalted()  returns TRUE (0000ms, 0628ms total)
T2A68 001:505 JLINK_IsHalted()  returns TRUE (0000ms, 0628ms total)
T2A68 001:505 JLINK_IsHalted()  returns TRUE (0000ms, 0628ms total)
T2A68 001:505 JLINK_ReadReg(R15 (PC))  returns 0x10001FC8 (0000ms, 0628ms total)
T2A68 001:505 JLINK_ReadReg(XPSR)  returns 0x61000000 (0000ms, 0628ms total)
T2A68 001:506 JLINK_ClrBPEx(BPHandle = 0x00000001)  returns 0x00 (0000ms, 0628ms total)
T2A68 001:506 JLINK_ReadMemU32(0xE000ED30, 0x0001 Items, ...) -- CPU_ReadMem(4 bytes @ 0xE000ED30) -- Data:  03 00 00 00  returns 0x01 (0000ms, 0628ms total)
T2A68 001:506 JLINK_ReadMemU32(0xE0001028, 0x0001 Items, ...) -- CPU_ReadMem(4 bytes @ 0xE0001028) -- Data:  00 00 00 01  returns 0x01 (0001ms, 0629ms total)
T2A68 001:507 JLINK_ReadMemU32(0xE0001038, 0x0001 Items, ...) -- CPU_ReadMem(4 bytes @ 0xE0001038) -- Data:  00 02 00 00  returns 0x01 (0001ms, 0630ms total)
T2A68 001:508 JLINK_ReadMemU32(0xE0001048, 0x0001 Items, ...) -- CPU_ReadMem(4 bytes @ 0xE0001048) -- Data:  00 00 00 00  returns 0x01 (0000ms, 0630ms total)
T2A68 001:508 JLINK_ReadMemU32(0xE0001058, 0x0001 Items, ...) -- CPU_ReadMem(4 bytes @ 0xE0001058) -- Data:  00 00 00 00  returns 0x01 (0001ms, 0631ms total)
T2A68 001:509 JLINK_ReadReg(R0)  returns 0x10001FC9 (0000ms, 0631ms total)
T2A68 001:509 JLINK_ReadReg(R1)  returns 0x10083CB0 (0000ms, 0631ms total)
T2A68 001:509 JLINK_ReadReg(R2)  returns 0x00000000 (0000ms, 0631ms total)
T2A68 001:509 JLINK_ReadReg(R3)  returns 0x10001F2D (0000ms, 0631ms total)
T2A68 001:509 JLINK_ReadReg(R4)  returns 0x100021AC (0000ms, 0631ms total)
T2A68 001:509 JLINK_ReadReg(R5)  returns 0x100021AC (0000ms, 0631ms total)
T2A68 001:509 JLINK_ReadReg(R6)  returns 0xD0D0D0D0 (0000ms, 0631ms total)
T2A68 001:509 JLINK_ReadReg(R7)  returns 0x80000000 (0000ms, 0631ms total)
T2A68 001:509 JLINK_ReadReg(R8)  returns 0x00000000 (0000ms, 0631ms total)
T2A68 001:509 JLINK_ReadReg(R9)  returns 0x00000000 (0000ms, 0631ms total)
T2A68 001:509 JLINK_ReadReg(R10)  returns 0x00000000 (0000ms, 0631ms total)
T2A68 001:509 JLINK_ReadReg(R11)  returns 0x00000000 (0000ms, 0631ms total)
T2A68 001:509 JLINK_ReadReg(R12)  returns 0x0B71B000 (0000ms, 0631ms total)
T2A68 001:509 JLINK_ReadReg(R13 (SP))  returns 0x10083CB0 (0000ms, 0631ms total)
T2A68 001:509 JLINK_ReadReg(R14)  returns 0x10000191 (0000ms, 0631ms total)
T2A68 001:509 JLINK_ReadReg(R15 (PC))  returns 0x10001FC8 (0000ms, 0631ms total)
T2A68 001:509 JLINK_ReadReg(XPSR)  returns 0x61000000 (0000ms, 0631ms total)
T2A68 001:509 JLINK_ReadReg(MSP)  returns 0x10083CB0 (0000ms, 0631ms total)
T2A68 001:509 JLINK_ReadReg(PSP)  returns 0x00000000 (0000ms, 0631ms total)
T2A68 001:509 JLINK_ReadReg(CFBP)  returns 0x00000000 (0000ms, 0631ms total)
T2A68 001:509 JLINK_ReadReg(FPSCR)  returns 0x00000000 (0008ms, 0639ms total)
T2A68 001:517 JLINK_ReadReg(FPS0)  returns 0x00000000 (0000ms, 0639ms total)
T2A68 001:517 JLINK_ReadReg(FPS1)  returns 0x00000000 (0000ms, 0639ms total)
T2A68 001:517 JLINK_ReadReg(FPS2)  returns 0x00000000 (0000ms, 0639ms total)
T2A68 001:517 JLINK_ReadReg(FPS3)  returns 0x00000000 (0000ms, 0639ms total)
T2A68 001:517 JLINK_ReadReg(FPS4)  returns 0x00000000 (0000ms, 0639ms total)
T2A68 001:517 JLINK_ReadReg(FPS5)  returns 0x00000000 (0000ms, 0639ms total)
T2A68 001:517 JLINK_ReadReg(FPS6)  returns 0x00000000 (0000ms, 0639ms total)
T2A68 001:517 JLINK_ReadReg(FPS7)  returns 0x00000000 (0000ms, 0639ms total)
T2A68 001:517 JLINK_ReadReg(FPS8)  returns 0x00000000 (0000ms, 0639ms total)
T2A68 001:517 JLINK_ReadReg(FPS9)  returns 0x00000000 (0000ms, 0639ms total)
T2A68 001:517 JLINK_ReadReg(FPS10)  returns 0x00000000 (0000ms, 0639ms total)
T2A68 001:517 JLINK_ReadReg(FPS11)  returns 0x00000000 (0000ms, 0639ms total)
T2A68 001:517 JLINK_ReadReg(FPS12)  returns 0x00000000 (0000ms, 0639ms total)
T2A68 001:517 JLINK_ReadReg(FPS13)  returns 0x00000000 (0000ms, 0639ms total)
T2A68 001:517 JLINK_ReadReg(FPS14)  returns 0x00000000 (0000ms, 0639ms total)
T2A68 001:517 JLINK_ReadReg(FPS15)  returns 0x00000000 (0000ms, 0639ms total)
T2A68 001:517 JLINK_ReadReg(FPS16)  returns 0x00000000 (0000ms, 0639ms total)
T2A68 001:517 JLINK_ReadReg(FPS17)  returns 0x00000000 (0000ms, 0639ms total)
T2A68 001:517 JLINK_ReadReg(FPS18)  returns 0x00000000 (0000ms, 0639ms total)
T2A68 001:517 JLINK_ReadReg(FPS19)  returns 0x00000000 (0000ms, 0639ms total)
T2A68 001:517 JLINK_ReadReg(FPS20)  returns 0x00000000 (0000ms, 0639ms total)
T2A68 001:517 JLINK_ReadReg(FPS31)  returns 0x00000000 (0000ms, 0639ms total)
T2A68 001:517 JLINK_ReadReg(FPS7)  returns 0x00000000 (0000ms, 0639ms total)
T2A68 001:517 JLINK_ReadReg(FPS8)  returns 0x00000000 (0000ms, 0639ms total)
T2A68 001:517 JLINK_ReadReg(FPS9)  returns 0x00000000 (0000ms, 0639ms total)
T2A68 001:517 JLINK_ReadReg(FPS10)  returns 0x00000000 (0000ms, 0639ms total)
T2A68 001:517 JLINK_ReadReg(FPS11)  returns 0x00000000 (0000ms, 0639ms total)
T2A68 001:517 JLINK_ReadReg(FPS12)  returns 0x00000000 (0000ms, 0639ms total)
T2A68 001:517 JLINK_ReadReg(FPS13)  returns 0x00000000 (0000ms, 0639ms total)
T2A68 001:517 JLINK_ReadReg(FPS14)  returns 0x00000000 (0000ms, 0639ms total)
T2A68 001:517 JLINK_ReadReg(FPS15)  returns 0x00000000 (0000ms, 0639ms total)
T2A68 001:517 JLINK_ReadReg(FPS16)  returns 0x00000000 (0000ms, 0639ms total)
T2A68 001:530 JLINK_Step() -- CPU_ReadMem(64 bytes @ 0x10001FC0) -- Updating DA cache (64 bytes @ 0x10001FC0) -- Read from DA cache (2 bytes @ 0x10001FC8) -- Simulated  returns 0x00 (0002ms, 0641ms total)
T2A68 001:532 JLINK_ReadReg(R15 (PC))  returns 0x10001FCA (0000ms, 0641ms total)
T2A68 001:532 JLINK_ReadReg(XPSR)  returns 0x61000000 (0000ms, 0641ms total)
T2A68 001:532 JLINK_SetBPEx(Addr = 0x10001FC8, Type = 0xFFFFFFF2)  returns 0x00000002 (0000ms, 0641ms total)
T2A68 001:532 JLINK_Go() (0001ms, 0642ms total)
T2A68 001:633 JLINK_IsHalted()  returns FALSE (0000ms, 0642ms total)
T2A68 001:733 JLINK_IsHalted()  returns FALSE (0000ms, 0642ms total)
T2A68 001:833 JLINK_IsHalted()  returns FALSE (0000ms, 0642ms total)
T2A68 001:933 JLINK_IsHalted()  returns FALSE (0000ms, 0642ms total)
T2A68 002:033 JLINK_IsHalted()  returns FALSE (0000ms, 0642ms total)
T2A68 002:133 JLINK_IsHalted()  returns FALSE (0001ms, 0643ms total)
T2A68 002:234 JLINK_IsHalted()  returns FALSE (0000ms, 0642ms total)
T2A68 002:334 JLINK_IsHalted()  returns FALSE (0000ms, 0642ms total)
T2A68 002:434 JLINK_IsHalted()  returns FALSE (0000ms, 0642ms total)
T2A68 002:534 JLINK_IsHalted()  returns FALSE (0000ms, 0642ms total)
T2A68 002:634 JLINK_IsHalted()  returns FALSE (0000ms, 0642ms total)
T2A68 002:734 JLINK_IsHalted()  returns FALSE (0000ms, 0642ms total)
T2A68 002:834 JLINK_IsHalted()  returns FALSE (0000ms, 0642ms total)
T2A68 002:934 JLINK_IsHalted()  returns FALSE (0000ms, 0642ms total)
T2A68 003:034 JLINK_IsHalted()  returns FALSE (0000ms, 0642ms total)
T2A68 003:134 JLINK_IsHalted()  returns FALSE (0001ms, 0643ms total)
T2A68 003:235 JLINK_IsHalted()  returns FALSE (0000ms, 0642ms total)
T2A68 003:335 JLINK_IsHalted()  returns FALSE (0000ms, 0642ms total)
T2A68 003:435 JLINK_IsHalted()  returns FALSE (0000ms, 0642ms total)
T2A68 003:535 JLINK_IsHalted()  returns FALSE (0000ms, 0642ms total)
T2A68 003:635 JLINK_IsHalted()  returns FALSE (0000ms, 0642ms total)
T2A68 003:735 JLINK_IsHalted()  returns FALSE (0000ms, 0642ms total)
T2A68 003:835 JLINK_IsHalted()  returns FALSE (0000ms, 0642ms total)
T2A68 003:935 JLINK_IsHalted()  returns FALSE (0000ms, 0642ms total)
T2A68 004:035 JLINK_IsHalted()  returns FALSE (0000ms, 0642ms total)
T2A68 004:135 JLINK_IsHalted()  returns FALSE (0001ms, 0643ms total)
T2A68 004:236 JLINK_IsHalted()  returns FALSE (0000ms, 0642ms total)
T2A68 004:336 JLINK_IsHalted()  returns FALSE (0000ms, 0642ms total)
T2A68 004:436 JLINK_IsHalted()  returns FALSE (0000ms, 0642ms total)
T2A68 004:536 JLINK_IsHalted()  returns FALSE (0000ms, 0642ms total)
T2A68 004:636 JLINK_IsHalted()  returns FALSE (0000ms, 0642ms total)
T2A68 004:736 JLINK_IsHalted()  returns FALSE (0000ms, 0642ms total)
T2A68 004:836 JLINK_IsHalted()  returns FALSE (0000ms, 0642ms total)
T2A68 004:936 JLINK_IsHalted()  returns FALSE (0000ms, 0642ms total)
T2A68 005:036 JLINK_IsHalted()  returns FALSE (0000ms, 0642ms total)
T2A68 005:136 JLINK_IsHalted()  returns FALSE (0001ms, 0643ms total)
T2A68 005:237 JLINK_IsHalted()  returns FALSE (0000ms, 0642ms total)
T2A68 005:337 JLINK_IsHalted()  returns FALSE (0000ms, 0642ms total)
T2A68 005:437 JLINK_IsHalted()  returns FALSE (0000ms, 0642ms total)
T2A68 005:537 JLINK_IsHalted()  returns FALSE (0000ms, 0642ms total)
T2A68 005:637 JLINK_IsHalted()  returns FALSE (0000ms, 0642ms total)
T2A68 005:737 JLINK_IsHalted()  returns FALSE (0000ms, 0642ms total)
T2A68 005:837 JLINK_IsHalted()  returns FALSE (0000ms, 0642ms total)
T2A68 005:937 JLINK_IsHalted()  returns FALSE (0000ms, 0642ms total)
T2A68 006:037 JLINK_IsHalted()  returns FALSE (0000ms, 0642ms total)
T2A68 006:137 JLINK_IsHalted()  returns FALSE (0001ms, 0643ms total)
T2A68 006:238 JLINK_IsHalted()  returns FALSE (0000ms, 0642ms total)
T2A68 006:338 JLINK_IsHalted()  returns FALSE (0000ms, 0642ms total)
T2A68 006:438 JLINK_IsHalted()  returns FALSE (0000ms, 0642ms total)
T2A68 006:538 JLINK_IsHalted()  returns FALSE (0000ms, 0642ms total)
T2A68 006:638 JLINK_IsHalted()  returns FALSE (0000ms, 0642ms total)
T2A68 006:738 JLINK_IsHalted()  returns FALSE (0000ms, 0642ms total)
T2A68 006:838 JLINK_IsHalted()  returns FALSE (0000ms, 0642ms total)
T2A68 006:938 JLINK_IsHalted()  returns FALSE (0000ms, 0642ms total)
T2A68 007:038 JLINK_IsHalted()  returns FALSE (0000ms, 0642ms total)
T2A68 007:138 JLINK_IsHalted()  returns FALSE (0000ms, 0642ms total)
T2A68 007:238 JLINK_IsHalted()  returns FALSE (0000ms, 0642ms total)
T2A68 007:338 JLINK_IsHalted()  returns FALSE (0000ms, 0642ms total)
T2A68 007:438 JLINK_IsHalted()  returns FALSE (0000ms, 0642ms total)
T2A68 007:538 JLINK_IsHalted()  returns FALSE (0000ms, 0642ms total)
T2A68 007:638 JLINK_IsHalted()  returns FALSE (0000ms, 0642ms total)
T2A68 007:738 JLINK_IsHalted()  returns FALSE (0000ms, 0642ms total)
T2A68 007:838 JLINK_IsHalted()  returns FALSE (0000ms, 0642ms total)
T2A68 007:938 JLINK_IsHalted()  returns FALSE (0000ms, 0642ms total)
T2A68 008:038 JLINK_IsHalted()  returns FALSE (0000ms, 0642ms total)
T2A68 008:138 JLINK_IsHalted()  returns FALSE (0000ms, 0642ms total)
T2A68 008:238 JLINK_IsHalted()  returns FALSE (0001ms, 0643ms total)
T2A68 008:339 JLINK_IsHalted()  returns FALSE (0000ms, 0642ms total)
T2A68 008:439 JLINK_IsHalted()  returns FALSE (0000ms, 0642ms total)
T2A68 008:539 JLINK_IsHalted()  returns FALSE (0000ms, 0642ms total)
T2A68 008:639 JLINK_IsHalted()  returns FALSE (0000ms, 0642ms total)
T2A68 008:739 JLINK_IsHalted()  returns FALSE (0000ms, 0642ms total)
T2A68 008:839 JLINK_IsHalted()  returns FALSE (0000ms, 0642ms total)
T2A68 008:939 JLINK_IsHalted()  returns FALSE (0000ms, 0642ms total)
T2A68 009:039 JLINK_IsHalted()  returns FALSE (0000ms, 0642ms total)
T2A68 009:139 JLINK_IsHalted()  returns FALSE (0000ms, 0642ms total)
T2A68 009:239 JLINK_IsHalted()  returns FALSE (0001ms, 0643ms total)
T2A68 009:340 JLINK_IsHalted()  returns FALSE (0000ms, 0642ms total)
T2A68 009:440 JLINK_IsHalted()  returns FALSE (0000ms, 0642ms total)
T2A68 009:540 JLINK_Halt()  returns 0x00 (0005ms, 0647ms total)
T2A68 009:545 JLINK_IsHalted()  returns TRUE (0000ms, 0647ms total)
T2A68 009:545 JLINK_IsHalted()  returns TRUE (0000ms, 0647ms total)
T2A68 009:545 JLINK_IsHalted()  returns TRUE (0000ms, 0647ms total)
T2A68 009:545 JLINK_ReadReg(R15 (PC))  returns 0x10000566 (0000ms, 0647ms total)
T2A68 009:545 JLINK_ReadReg(XPSR)  returns 0x21000000 (0000ms, 0647ms total)
T2A68 009:545 JLINK_ClrBPEx(BPHandle = 0x00000002)  returns 0x00 (0000ms, 0647ms total)
T2A68 009:545 JLINK_ReadMemU32(0xE000ED30, 0x0001 Items, ...) -- CPU_ReadMem(4 bytes @ 0xE000ED30) -- Data:  01 00 00 00  returns 0x01 (0001ms, 0648ms total)
T2A68 009:546 JLINK_ReadMemU32(0xE0001028, 0x0001 Items, ...) -- CPU_ReadMem(4 bytes @ 0xE0001028) -- Data:  00 00 00 00  returns 0x01 (0000ms, 0648ms total)
T2A68 009:546 JLINK_ReadMemU32(0xE0001038, 0x0001 Items, ...) -- CPU_ReadMem(4 bytes @ 0xE0001038) -- Data:  00 02 00 00  returns 0x01 (0001ms, 0649ms total)
T2A68 009:547 JLINK_ReadMemU32(0xE0001048, 0x0001 Items, ...) -- CPU_ReadMem(4 bytes @ 0xE0001048) -- Data:  00 00 00 00  returns 0x01 (0001ms, 0650ms total)
T2A68 009:548 JLINK_ReadMemU32(0xE0001058, 0x0001 Items, ...) -- CPU_ReadMem(4 bytes @ 0xE0001058) -- Data:  00 00 00 00  returns 0x01 (0001ms, 0651ms total)
T2A68 009:549 JLINK_ReadReg(R0)  returns 0x00000001 (0000ms, 0651ms total)
T2A68 009:549 JLINK_ReadReg(R1)  returns 0x00000000 (0000ms, 0651ms total)
T2A68 009:549 JLINK_ReadReg(R2)  returns 0x00000007 (0000ms, 0651ms total)
T2A68 009:549 JLINK_ReadReg(R3)  returns 0x00000000 (0000ms, 0651ms total)
T2A68 009:549 JLINK_ReadReg(R4)  returns 0x00000000 (0000ms, 0651ms total)
T2A68 009:549 JLINK_ReadReg(R5)  returns 0x10080008 (0000ms, 0651ms total)
T2A68 009:549 JLINK_ReadReg(R6)  returns 0x0000FFFF (0000ms, 0651ms total)
T2A68 009:549 JLINK_ReadReg(R7)  returns 0x10080154 (0000ms, 0651ms total)
T2A68 009:549 JLINK_ReadReg(R8)  returns 0x10080000 (0000ms, 0651ms total)
T2A68 009:549 JLINK_ReadReg(R9)  returns 0x00000000 (0000ms, 0651ms total)
T2A68 009:549 JLINK_ReadReg(R10)  returns 0x00000000 (0000ms, 0651ms total)
T2A68 009:549 JLINK_ReadReg(R11)  returns 0x00000000 (0000ms, 0651ms total)
T2A68 009:549 JLINK_ReadReg(R12)  returns 0x0B71B000 (0000ms, 0651ms total)
T2A68 009:549 JLINK_ReadReg(R13 (SP))  returns 0x10083CA8 (0000ms, 0651ms total)
T2A68 009:549 JLINK_ReadReg(R14)  returns 0x10000563 (0000ms, 0651ms total)
T2A68 009:549 JLINK_ReadReg(R15 (PC))  returns 0x10000566 (0000ms, 0651ms total)
T2A68 009:549 JLINK_ReadReg(XPSR)  returns 0x21000000 (0000ms, 0651ms total)
T2A68 009:549 JLINK_ReadReg(MSP)  returns 0x10083CA8 (0000ms, 0651ms total)
T2A68 009:549 JLINK_ReadReg(PSP)  returns 0x00000000 (0000ms, 0651ms total)
T2A68 009:549 JLINK_ReadReg(CFBP)  returns 0x00000000 (0000ms, 0651ms total)
T2A68 009:549 JLINK_ReadReg(FPSCR)  returns 0x00000000 (0007ms, 0658ms total)
T2A68 009:556 JLINK_ReadReg(FPS0)  returns 0x00000000 (0000ms, 0658ms total)
T2A68 009:556 JLINK_ReadReg(FPS1)  returns 0x00000000 (0000ms, 0658ms total)
T2A68 009:556 JLINK_ReadReg(FPS2)  returns 0x00000000 (0000ms, 0658ms total)
T2A68 009:556 JLINK_ReadReg(FPS3)  returns 0x00000000 (0000ms, 0658ms total)
T2A68 009:556 JLINK_ReadReg(FPS4)  returns 0x00000000 (0000ms, 0658ms total)
T2A68 009:556 JLINK_ReadReg(FPS5)  returns 0x00000000 (0000ms, 0658ms total)
T2A68 009:556 JLINK_ReadReg(FPS6)  returns 0x00000000 (0000ms, 0658ms total)
T2A68 009:556 JLINK_ReadReg(FPS7)  returns 0x00000000 (0000ms, 0658ms total)
T2A68 009:556 JLINK_ReadReg(FPS8)  returns 0x00000000 (0000ms, 0658ms total)
T2A68 009:556 JLINK_ReadReg(FPS9)  returns 0x00000000 (0000ms, 0658ms total)
T2A68 009:556 JLINK_ReadReg(FPS10)  returns 0x00000000 (0000ms, 0658ms total)
T2A68 009:556 JLINK_ReadReg(FPS11)  returns 0x00000000 (0000ms, 0658ms total)
T2A68 009:556 JLINK_ReadReg(FPS12)  returns 0x00000000 (0000ms, 0658ms total)
T2A68 009:556 JLINK_ReadReg(FPS13)  returns 0x00000000 (0000ms, 0658ms total)
T2A68 009:556 JLINK_ReadReg(FPS14)  returns 0x00000000 (0000ms, 0658ms total)
T2A68 009:556 JLINK_ReadReg(FPS15)  returns 0x00000000 (0000ms, 0658ms total)
T2A68 009:556 JLINK_ReadReg(FPS16)  returns 0x00000000 (0000ms, 0658ms total)
T2A68 009:556 JLINK_ReadReg(FPS17)  returns 0x00000000 (0000ms, 0658ms total)
T2A68 009:556 JLINK_ReadReg(FPS18)  returns 0x00000000 (0000ms, 0658ms total)
T2A68 009:556 JLINK_ReadReg(FPS19)  returns 0x00000000 (0000ms, 0658ms total)
T2A68 009:556 JLINK_ReadReg(FPS20)  returns 0x00000000 (0000ms, 0658ms total)
T2A68 009:556 JLINK_ReadReg(FPS31)  returns 0x00000000 (0000ms, 0658ms total)
T2A68 009:556 JLINK_ReadReg(FPS7)  returns 0x00000000 (0000ms, 0658ms total)
T2A68 009:556 JLINK_ReadReg(FPS8)  returns 0x00000000 (0000ms, 0658ms total)
T2A68 009:556 JLINK_ReadReg(FPS9)  returns 0x00000000 (0000ms, 0658ms total)
T2A68 009:556 JLINK_ReadReg(FPS10)  returns 0x00000000 (0000ms, 0658ms total)
T2A68 009:556 JLINK_ReadReg(FPS11)  returns 0x00000000 (0000ms, 0658ms total)
T2A68 009:556 JLINK_ReadReg(FPS12)  returns 0x00000000 (0000ms, 0658ms total)
T2A68 009:556 JLINK_ReadReg(FPS13)  returns 0x00000000 (0000ms, 0658ms total)
T2A68 009:556 JLINK_ReadReg(FPS14)  returns 0x00000000 (0000ms, 0658ms total)
T2A68 009:556 JLINK_ReadReg(FPS15)  returns 0x00000000 (0000ms, 0658ms total)
T2A68 009:556 JLINK_ReadReg(FPS16)  returns 0x00000000 (0000ms, 0658ms total)
T2E9C 009:556 JLINK_ReadMem (0x10083CAC, 0x0004 Bytes, ...) -- CPU_ReadMem(4 bytes @ 0x10083CAC) -- Data:  ED 1F 00 10  returns 0x00 (0001ms, 0659ms total)
T2E9C 009:557 JLINK_ReadMem (0x10083CA8, 0x0004 Bytes, ...) -- CPU_ReadMem(4 bytes @ 0x10083CA8) -- Data:  00 00 00 00  returns 0x00 (0001ms, 0660ms total)
T2E9C 009:558 JLINK_ReadMem (0x00000000, 0x0001 Bytes, ...)
                JLINK_ReadMemHW(0x00000000, 0x0004 Bytes, ...) -- CPU_ReadMem(4 bytes @ 0x00000000) -- Data:  B0 3C 08 10  returns 0x00 (0001ms, 0001ms total)
                JLINK_ReadMemHW(0x14000000, 0x0004 Bytes, ...) -- CPU_ReadMem(4 bytes @ 0x14000000) -- Data:  B0 3C 00 10  returns 0x00 (0001ms, 0002ms total)
               -- CPU_ReadMem(4 bytes @ 0x00000000) -- CPU_WriteMem(4 bytes @ 0x00000000) -- CPU_ReadMem(4 bytes @ 0x00000000) -- CPU_WriteMem(4 bytes @ 0x00000000) -- MA0 is in RAM -- CPU_ReadMem(1 bytes @ 0x00000000) -- Data:  B0  returns 0x00 (0005ms, 0665ms total)
T2E9C 009:564 JLINK_ReadMem (0x10000564, 0x003C Bytes, ...) -- CPU_ReadMem(128 bytes @ 0x10000540) -- Updating DA cache (128 bytes @ 0x10000540) -- Read from DA cache (60 bytes @ 0x10000564) -- Data:  01 24 20 46 10 BD 00 00 00 40 0F 40 30 B5 18 48 ...  returns 0x00 (0003ms, 0668ms total)
T2E9C 009:567 JLINK_ReadMem (0x10000558, 0x003C Bytes, ...) -- Read from DA cache (60 bytes @ 0x10000558) -- Data:  07 22 21 46 03 48 00 F0 7F FA 00 B9 01 24 20 46 ...  returns 0x00 (0000ms, 0668ms total)
T2A68 011:876 JLINK_SetBPEx(Addr = 0x10001FC8, Type = 0xFFFFFFF2)  returns 0x00000003 (0001ms, 0669ms total)
T2A68 011:877 JLINK_Go() -- Invalidate MA0 status (0001ms, 0670ms total)
T2A68 011:978 JLINK_IsHalted()  returns FALSE (0000ms, 0670ms total)
T2A68 012:078 JLINK_IsHalted()  returns FALSE (0000ms, 0670ms total)
T2A68 012:178 JLINK_IsHalted()  returns FALSE (0000ms, 0670ms total)
T2A68 012:278 JLINK_IsHalted()  returns FALSE (0000ms, 0670ms total)
T2A68 012:378 JLINK_IsHalted()  returns FALSE (0000ms, 0670ms total)
T2A68 012:478 JLINK_IsHalted()  returns FALSE (0000ms, 0670ms total)
T2A68 012:578 JLINK_IsHalted()  returns FALSE (0000ms, 0670ms total)
T2A68 012:678 JLINK_IsHalted()  returns FALSE (0000ms, 0670ms total)
T2A68 012:778 JLINK_IsHalted()  returns FALSE (0000ms, 0670ms total)
T2A68 012:878 JLINK_IsHalted()  returns FALSE (0001ms, 0671ms total)
T2A68 012:979 JLINK_IsHalted()  returns FALSE (0000ms, 0670ms total)
T2A68 013:079 JLINK_IsHalted()  returns FALSE (0000ms, 0670ms total)
T2A68 013:179 JLINK_IsHalted()  returns FALSE (0000ms, 0670ms total)
T2A68 013:279 JLINK_IsHalted()  returns FALSE (0000ms, 0670ms total)
T2A68 013:379 JLINK_IsHalted()  returns FALSE (0000ms, 0670ms total)
T2A68 013:479 JLINK_IsHalted()  returns FALSE (0000ms, 0670ms total)
T2A68 013:579 JLINK_IsHalted()  returns FALSE (0000ms, 0670ms total)
T2A68 013:679 JLINK_IsHalted()  returns FALSE (0000ms, 0670ms total)
T2A68 013:779 JLINK_IsHalted()  returns FALSE (0000ms, 0670ms total)
T2A68 013:879 JLINK_IsHalted()  returns FALSE (0000ms, 0670ms total)
T2A68 013:979 JLINK_IsHalted()  returns FALSE (0000ms, 0670ms total)
T2A68 014:079 JLINK_IsHalted()  returns FALSE (0000ms, 0670ms total)
T2A68 014:179 JLINK_IsHalted()  returns FALSE (0000ms, 0670ms total)
T2A68 014:279 JLINK_IsHalted()  returns FALSE (0000ms, 0670ms total)
T2A68 014:379 JLINK_IsHalted()  returns FALSE (0000ms, 0670ms total)
T2A68 014:479 JLINK_IsHalted()  returns FALSE (0000ms, 0670ms total)
T2A68 014:579 JLINK_IsHalted()  returns FALSE (0000ms, 0670ms total)
T2A68 014:679 JLINK_IsHalted()  returns FALSE (0000ms, 0670ms total)
T2A68 014:779 JLINK_IsHalted()  returns FALSE (0000ms, 0670ms total)
T2A68 014:879 JLINK_IsHalted()  returns FALSE (0000ms, 0670ms total)
T2A68 014:979 JLINK_IsHalted()  returns FALSE (0001ms, 0671ms total)
T2A68 015:080 JLINK_IsHalted()  returns FALSE (0000ms, 0670ms total)
T2A68 015:180 JLINK_IsHalted()  returns FALSE (0000ms, 0670ms total)
T2A68 015:280 JLINK_IsHalted()  returns FALSE (0000ms, 0670ms total)
T2A68 015:380 JLINK_IsHalted()  returns FALSE (0000ms, 0670ms total)
T2A68 015:480 JLINK_IsHalted()  returns FALSE (0000ms, 0670ms total)
T2A68 015:580 JLINK_IsHalted()  returns FALSE (0000ms, 0670ms total)
T2A68 015:680 JLINK_IsHalted()  returns FALSE (0000ms, 0670ms total)
T2A68 015:780 JLINK_IsHalted()  returns FALSE (0000ms, 0670ms total)
T2A68 015:880 JLINK_IsHalted()  returns FALSE (0000ms, 0670ms total)
T2A68 015:980 JLINK_IsHalted()  returns FALSE (0001ms, 0671ms total)
T2A68 016:081 JLINK_IsHalted()  returns FALSE (0000ms, 0670ms total)
T2A68 016:181 JLINK_IsHalted()  returns FALSE (0000ms, 0670ms total)
T2A68 016:281 JLINK_IsHalted()  returns FALSE (0000ms, 0670ms total)
T2A68 016:381 JLINK_IsHalted()  returns FALSE (0000ms, 0670ms total)
T2A68 016:481 JLINK_IsHalted()  returns FALSE (0000ms, 0670ms total)
T2A68 016:581 JLINK_IsHalted()  returns FALSE (0000ms, 0670ms total)
T2A68 016:681 JLINK_IsHalted()  returns FALSE (0000ms, 0670ms total)
T2A68 016:781 JLINK_IsHalted()  returns FALSE (0000ms, 0670ms total)
T2A68 016:881 JLINK_IsHalted()  returns FALSE (0000ms, 0670ms total)
T2A68 016:981 JLINK_IsHalted()  returns FALSE (0001ms, 0671ms total)
T2A68 017:082 JLINK_IsHalted()  returns FALSE (0000ms, 0670ms total)
T2A68 017:182 JLINK_IsHalted()  returns FALSE (0000ms, 0670ms total)
T2A68 017:282 JLINK_IsHalted()  returns FALSE (0000ms, 0670ms total)
T2A68 017:382 JLINK_IsHalted()  returns FALSE (0000ms, 0670ms total)
T2A68 017:482 JLINK_IsHalted()  returns FALSE (0000ms, 0670ms total)
T2A68 017:582 JLINK_IsHalted()  returns FALSE (0000ms, 0670ms total)
T2A68 017:682 JLINK_IsHalted()  returns FALSE (0000ms, 0670ms total)
T2A68 017:782 JLINK_IsHalted()  returns FALSE (0000ms, 0670ms total)
T2A68 017:882 JLINK_IsHalted()  returns FALSE (0000ms, 0670ms total)
T2A68 017:982 JLINK_IsHalted()  returns FALSE (0001ms, 0671ms total)
T2A68 018:083 JLINK_IsHalted()  returns FALSE (0000ms, 0670ms total)
T2A68 018:183 JLINK_IsHalted()  returns FALSE (0000ms, 0670ms total)
T2A68 018:283 JLINK_IsHalted()  returns FALSE (0000ms, 0670ms total)
T2A68 018:383 JLINK_IsHalted()  returns FALSE (0000ms, 0670ms total)
T2A68 018:483 JLINK_IsHalted()  returns FALSE (0000ms, 0670ms total)
T2A68 018:583 JLINK_IsHalted()  returns FALSE (0000ms, 0670ms total)
T2A68 018:683 JLINK_IsHalted()  returns FALSE (0000ms, 0670ms total)
T2A68 018:783 JLINK_IsHalted()  returns FALSE (0000ms, 0670ms total)
T2A68 018:883 JLINK_IsHalted()  returns FALSE (0000ms, 0670ms total)
T2A68 018:983 JLINK_IsHalted()  returns FALSE (0001ms, 0671ms total)
T2A68 019:084 JLINK_IsHalted()  returns FALSE (0000ms, 0670ms total)
T2A68 019:184 JLINK_IsHalted()  returns FALSE (0000ms, 0670ms total)
T2A68 019:284 JLINK_IsHalted()  returns FALSE (0000ms, 0670ms total)
T2A68 019:384 JLINK_IsHalted()  returns FALSE (0000ms, 0670ms total)
T2A68 019:484 JLINK_IsHalted()  returns FALSE (0000ms, 0670ms total)
T2A68 019:584 JLINK_IsHalted()  returns FALSE (0000ms, 0670ms total)
T2A68 019:684 JLINK_IsHalted()  returns FALSE (0000ms, 0670ms total)
T2A68 019:784 JLINK_IsHalted()  returns FALSE (0000ms, 0670ms total)
T2A68 019:884 JLINK_IsHalted()  returns FALSE (0000ms, 0670ms total)
T2A68 019:984 JLINK_IsHalted()  returns FALSE (0001ms, 0671ms total)
T2A68 020:085 JLINK_IsHalted()  returns FALSE (0000ms, 0670ms total)
T2A68 020:185 JLINK_IsHalted()  returns FALSE (0000ms, 0670ms total)
T2A68 020:285 JLINK_IsHalted()  returns FALSE (0000ms, 0670ms total)
T2A68 020:385 JLINK_IsHalted()  returns FALSE (0000ms, 0670ms total)
T2A68 020:485 JLINK_IsHalted()  returns FALSE (0000ms, 0670ms total)
T2A68 020:585 JLINK_IsHalted()  returns FALSE (0000ms, 0670ms total)
T2A68 020:685 JLINK_IsHalted()  returns FALSE (0000ms, 0670ms total)
T2A68 020:785 JLINK_IsHalted()  returns FALSE (0000ms, 0670ms total)
T2A68 020:885 JLINK_IsHalted()  returns FALSE (0000ms, 0670ms total)
T2A68 020:985 JLINK_IsHalted()  returns FALSE (0001ms, 0671ms total)
T2A68 021:086 JLINK_IsHalted()  returns FALSE (0000ms, 0670ms total)
T2A68 021:186 JLINK_IsHalted()  returns FALSE (0000ms, 0670ms total)
T2A68 021:286 JLINK_IsHalted()  returns FALSE (0000ms, 0670ms total)
T2A68 021:386 JLINK_IsHalted()  returns FALSE (0000ms, 0670ms total)
T2A68 021:486 JLINK_IsHalted()  returns FALSE (0000ms, 0670ms total)
T2A68 021:586 JLINK_IsHalted()  returns FALSE (0000ms, 0670ms total)
T2A68 021:686 JLINK_IsHalted()  returns FALSE (0000ms, 0670ms total)
T2A68 021:786 JLINK_IsHalted()  returns FALSE (0000ms, 0670ms total)
T2A68 021:886 JLINK_IsHalted()  returns FALSE (0000ms, 0670ms total)
T2A68 021:986 JLINK_IsHalted()  returns FALSE (0001ms, 0671ms total)
T2A68 022:087 JLINK_IsHalted()  returns FALSE (0000ms, 0670ms total)
T2A68 022:187 JLINK_IsHalted()  returns FALSE (0000ms, 0670ms total)
T2A68 022:287 JLINK_IsHalted()  returns FALSE (0000ms, 0670ms total)
